
T0F44 041:538 SEGGER J-Link V6.32g Log File (0002ms, 0046ms total)
T0F44 041:538 DLL Compiled: Jun 15 2018 17:26:15 (0002ms, 0046ms total)
T0F44 041:538 Logging started @ 2019-03-18 13:41 (0002ms, 0046ms total)
T0F44 041:540 JLINK_SetWarnOutHandler(...) (0000ms, 0046ms total)
T0F44 041:540 JLINK_OpenEx(...)
Firmware: J-Link ARM-OB STM32 compiled Aug 22 2012 19:52:04
Hardware: V7.00
S/N: 20090928
Feature(s): RDI,FlashDL,FlashBP,JFlash,GDBFull
TELNET listener socket opened on port 19021WEBSRV 
Starting webserver (0020ms, 0066ms total)
T0F44 041:540 WEBSRV Webserver running on local port 19080 (0021ms, 0067ms total)
T0F44 041:540   returns O.K. (0021ms, 0067ms total)
T0F44 041:561 JLINK_GetEmuCaps()  returns 0x88EA5833 (0000ms, 0067ms total)
T0F44 041:563 JLINK_TIF_GetAvailable(...) (0001ms, 0068ms total)
T0F44 041:564 JLINK_SetErrorOutHandler(...) (0000ms, 0068ms total)
T0F44 041:564 JLINK_ExecCommand("ProjectFile = "F:\Desktop\»ªÒê±­\³ÌÐò\°æ±¾\Project\JLinkSettings.ini"", ...).   returns 0x00 (0009ms, 0077ms total)
T0F44 041:585 JLINK_ExecCommand("Device = STM32F407ZG", ...). Device "STM32F407ZG" selected.  returns 0x00 (0011ms, 0088ms total)
T0F44 041:597 JLINK_ExecCommand("DisableConnectionTimeout", ...).   returns 0x01 (0000ms, 0088ms total)
T0F44 041:597 JLINK_GetHardwareVersion()  returns 0x11170 (0000ms, 0088ms total)
T0F44 041:597 JLINK_GetDLLVersion()  returns 63207 (0000ms, 0088ms total)
T0F44 041:597 JLINK_GetFirmwareString(...) (0000ms, 0088ms total)
T0F44 041:633 JLINK_GetDLLVersion()  returns 63207 (0000ms, 0088ms total)
T0F44 041:633 JLINK_GetCompileDateTime() (0000ms, 0088ms total)
T0F44 041:637 JLINK_GetFirmwareString(...) (0001ms, 0089ms total)
T0F44 041:641 JLINK_GetHardwareVersion()  returns 0x11170 (0000ms, 0089ms total)
T0F44 041:660 JLINK_TIF_Select(JLINKARM_TIF_SWD)  returns 0x00 (0001ms, 0090ms total)
T0F44 041:661 JLINK_SetSpeed(5000) (0002ms, 0092ms total)
T0F44 041:663 JLINK_GetId() >0x10B TIF>Found SW-DP with ID 0x2BA01477 >0x0D TIF> >0x28 TIF> >0x0D TIF> >0x28 TIF> >0x0D TIF> >0x28 TIF> >0x0D TIF> >0x28 TIF> >0x0D TIF> >0x21 TIF> >0x0D TIF> >0x28 TIF> >0x0D TIF> >0x28 TIF> >0x0D TIF> >0x28 TIF> >0x0D TIF> >0x21 TIF> >0x0D TIF> >0x21 TIF> >0x0D TIF> >0x28 TIF> >0x0D TIF> >0x21 TIF> >0x0D TIF> >0x21 TIF> >0x0D TIF> >0x28 TIF> >0x0D TIF> >0x21 TIF> >0x0D TIF> >0x21 TIF> >0x0D TIF> >0x28 TIF> >0x0D TIF> >0x21 TIF> >0x0D TIF> >0x21 TIF> >0x0D TIF> >0x28 TIF>
 >0x0D TIF> >0x21 TIF> >0x0D TIF> >0x21 TIF> >0x0D TIF> >0x28 TIF> >0x0D TIF> >0x21 TIF> >0x0D TIF> >0x21 TIF> >0x10B TIF>Found SW-DP with ID 0x2BA01477 >0x0D TIF> >0x28 TIF> >0x0D TIF> >0x28 TIF> >0x0D TIF> >0x28 TIF> >0x0D TIF> >0x28 TIF> >0x0D TIF> >0x21 TIF> >0x0D TIF> >0x28 TIF>Scanning AP map to find all available APs >0x0D TIF> >0x28 TIF> >0x0D TIF> >0x21 TIF> >0x0D TIF> >0x21 TIF> >0x0D TIF> >0x28 TIF> >0x0D TIF> >0x21 TIF> >0x0D TIF> >0x21 TIF>
AP[1]: Stopped AP scan as end of AP map has been reachedAP[0]: AHB-AP (IDR: 0x24770011)Iterating through AP map to find AHB-AP to use >0x42 TIF> >0x28 TIF> >0x0D TIF> >0x28 TIF> >0x0D TIF> >0x21 TIF> >0x0D TIF> >0x21 TIF> >0x42 TIF> >0x28 TIF> >0x0D TIF> >0x28 TIF> >0x0D TIF> >0x28 TIF> >0x0D TIF> >0x21 TIF> >0x0D TIF> >0x21 TIF>AP[0]: Core foundAP[0]: AHB-AP ROM base: 0xE00FF000 >0x0D TIF> >0x28 TIF> >0x0D TIF> >0x28 TIF> >0x0D TIF> >0x28 TIF> >0x0D TIF> >0x21 TIF> >0x0D TIF> >0x21 TIF>
CPUID register: 0x410FC241. Implementer code: 0x41 (ARM)Found Cortex-M4 r0p1, Little endian. -- CPU_ReadMem(4 bytes @ 0xE000EDF0) -- CPU_WriteMem(4 bytes @ 0xE000EDF0) -- CPU_ReadMem(4 bytes @ 0xE0002000)FPUnit: 6 code (BP) slots and 2 literal slots -- CPU_ReadMem(4 bytes @ 0xE000EDFC) -- CPU_WriteMem(4 bytes @ 0xE000EDFC) -- CPU_ReadMem(4 bytes @ 0xE0001000) -- CPU_WriteMem(4 bytes @ 0xE0001000) -- CPU_ReadMem(4 bytes @ 0xE000ED88) -- CPU_WriteMem(4 bytes @ 0xE000ED88)
 -- CPU_ReadMem(4 bytes @ 0xE000ED88) -- CPU_WriteMem(4 bytes @ 0xE000ED88)CoreSight components:ROMTbl[0] @ E00FF000 -- CPU_ReadMem(16 bytes @ 0xE00FF000) -- CPU_ReadMem(16 bytes @ 0xE000EFF0) -- CPU_ReadMem(16 bytes @ 0xE000EFE0)ROMTbl[0][0]: E000E000, CID: B105E00D, PID: 000BB00C SCS-M7 -- CPU_ReadMem(16 bytes @ 0xE0001FF0) -- CPU_ReadMem(16 bytes @ 0xE0001FE0)ROMTbl[0][1]: E0001000, CID: B105E00D, PID: 003BB002 DWT -- CPU_ReadMem(16 bytes @ 0xE0002FF0) -- CPU_ReadMem(16 bytes @ 0xE0002FE0)
ROMTbl[0][2]: E0002000, CID: B105E00D, PID: 002BB003 FPB -- CPU_ReadMem(16 bytes @ 0xE0000FF0) -- CPU_ReadMem(16 bytes @ 0xE0000FE0)ROMTbl[0][3]: E0000000, CID: B105E00D, PID: 003BB001 ITM -- CPU_ReadMem(16 bytes @ 0xE00FF010) -- CPU_ReadMem(16 bytes @ 0xE0040FF0) -- CPU_ReadMem(16 bytes @ 0xE0040FE0)ROMTbl[0][4]: E0040000, CID: B105900D, PID: 000BB9A1 TPIU -- CPU_ReadMem(16 bytes @ 0xE0041FF0) -- CPU_ReadMem(16 bytes @ 0xE0041FE0)ROMTbl[0][5]: E0041000, CID: B105900D, PID: 000BB925 ETM >0x0D TIF>
 >0x21 TIF>  returns 0x2BA01477 (0301ms, 0393ms total)
T0F44 041:964 JLINK_GetDLLVersion()  returns 63207 (0000ms, 0393ms total)
T0F44 041:964 JLINK_CORE_GetFound()  returns 0xE0000FF (0000ms, 0393ms total)
T0F44 041:964 JLINK_GetDebugInfo(0x100 = JLINKARM_ROM_TABLE_ADDR_INDEX) -- Value=0xE00FF000  returns 0x00 (0000ms, 0393ms total)
T0F44 041:969 JLINK_GetDebugInfo(0x100 = JLINKARM_ROM_TABLE_ADDR_INDEX) -- Value=0xE00FF000  returns 0x00 (0000ms, 0393ms total)
T0F44 041:969 JLINK_GetDebugInfo(0x101 = JLINKARM_DEBUG_INFO_ETM_ADDR_INDEX) -- Value=0xE0041000  returns 0x00 (0000ms, 0393ms total)
T0F44 041:969 JLINK_ReadMemEx(0xE0041FD0, 0x0020 Bytes, ..., Flags = 0x02000004) -- CPU_ReadMem(32 bytes @ 0xE0041FD0) - Data: 04 00 00 00 00 00 00 00 00 00 00 00 00 00 00 00 ...  returns 0x20 (0003ms, 0396ms total)
T0F44 041:972 JLINK_GetDebugInfo(0x102 = JLINKARM_DEBUG_INFO_MTB_ADDR_INDEX) -- Value=0x00000000  returns 0x00 (0000ms, 0396ms total)
T0F44 041:972 JLINK_GetDebugInfo(0x103 = JLINKARM_DEBUG_INFO_TPIU_ADDR_INDEX) -- Value=0xE0040000  returns 0x00 (0000ms, 0396ms total)
T0F44 041:972 JLINK_GetDebugInfo(0x104 = JLINKARM_DEBUG_INFO_ITM_ADDR_INDEX) -- Value=0xE0000000  returns 0x00 (0000ms, 0396ms total)
T0F44 041:972 JLINK_GetDebugInfo(0x105 = JLINKARM_DEBUG_INFO_DWT_ADDR_INDEX) -- Value=0xE0001000  returns 0x00 (0000ms, 0396ms total)
T0F44 041:972 JLINK_GetDebugInfo(0x106 = JLINKARM_DEBUG_INFO_FPB_ADDR_INDEX) -- Value=0xE0002000  returns 0x00 (0000ms, 0396ms total)
T0F44 041:972 JLINK_GetDebugInfo(0x107 = JLINKARM_DEBUG_INFO_NVIC_ADDR_INDEX) -- Value=0xE000E000  returns 0x00 (0000ms, 0396ms total)
T0F44 041:972 JLINK_GetDebugInfo(0x10C = JLINKARM_DEBUG_INFO_DBG_ADDR_INDEX) -- Value=0xE000EDF0  returns 0x00 (0000ms, 0396ms total)
T0F44 041:972 JLINK_GetDebugInfo(0x01 = Unknown) -- Value=0x00000001  returns 0x00 (0000ms, 0396ms total)
T0F44 041:972 JLINK_ReadMemU32(0xE000ED00, 0x0001 Items, ...) -- CPU_ReadMem(4 bytes @ 0xE000ED00) - Data: 41 C2 0F 41  returns 0x01 (0002ms, 0398ms total)
T0F44 041:974 JLINK_GetDebugInfo(0x10F = JLINKARM_DEBUG_INFO_HAS_CORTEX_M_SECURITY_EXT_INDEX) -- Value=0x00000000  returns 0x00 (0000ms, 0398ms total)
T0F44 041:974 JLINK_SetResetType(JLINKARM_CM3_RESET_TYPE_NORMAL)  returns JLINKARM_CM3_RESET_TYPE_NORMAL (0000ms, 0398ms total)
T0F44 041:974 JLINK_Reset() -- CPU is running -- CPU_WriteMem(4 bytes @ 0xE000EDF0) -- CPU is running -- CPU_WriteMem(4 bytes @ 0xE000EDFC)Reset: Halt core after reset via DEMCR.VC_CORERESET. >0x35 TIF>Reset: Reset device via AIRCR.SYSRESETREQ. -- CPU is running -- CPU_WriteMem(4 bytes @ 0xE000ED0C) >0x0D TIF> >0x28 TIF> -- CPU_ReadMem(4 bytes @ 0xE000EDF0) -- CPU_ReadMem(4 bytes @ 0xE000EDF0) -- CPU is running -- CPU_WriteMem(4 bytes @ 0xE000EDF0) -- CPU is running -- CPU_WriteMem(4 bytes @ 0xE000EDFC)
 -- CPU_ReadMem(4 bytes @ 0xE000EDF0) -- CPU_WriteMem(4 bytes @ 0xE0002000) -- CPU_ReadMem(4 bytes @ 0xE000EDFC) -- CPU_ReadMem(4 bytes @ 0xE0001000) (0091ms, 0489ms total)
T0F44 042:066 JLINK_Halt()  returns 0x00 (0000ms, 0489ms total)
T0F44 042:066 JLINK_ReadMemU32(0xE000EDF0, 0x0001 Items, ...) -- CPU_ReadMem(4 bytes @ 0xE000EDF0) - Data: 03 00 03 00  returns 0x01 (0001ms, 0490ms total)
T0F44 042:067 JLINK_WriteU32(0xE000EDF0, 0xA05F0003) -- CPU_WriteMem(4 bytes @ 0xE000EDF0)  returns 0x00 (0001ms, 0491ms total)
T0F44 042:068 JLINK_WriteU32(0xE000EDFC, 0x01000000) -- CPU_WriteMem(4 bytes @ 0xE000EDFC)  returns 0x00 (0001ms, 0492ms total)
T0F44 042:091 JLINK_GetHWStatus(...)  returns 0x00 (0001ms, 0493ms total)
T0F44 042:108 JLINK_GetNumBPUnits(Type = 0xFFFFFF00)  returns 0x06 (0000ms, 0493ms total)
T0F44 042:109 JLINK_GetNumBPUnits(Type = 0xF0)  returns 0x2000 (0000ms, 0494ms total)
T0F44 042:109 JLINK_GetNumWPUnits()  returns 0x04 (0000ms, 0494ms total)
T0F44 042:122 JLINK_GetSpeed()  returns 0xFA0 (0000ms, 0494ms total)
T0F44 042:132 JLINK_ReadMemU32(0xE000E004, 0x0001 Items, ...) -- CPU_ReadMem(4 bytes @ 0xE000E004) - Data: 02 00 00 00  returns 0x01 (0001ms, 0495ms total)
T0F44 042:133 JLINK_ReadMemU32(0xE000E004, 0x0001 Items, ...) -- CPU_ReadMem(4 bytes @ 0xE000E004) - Data: 02 00 00 00  returns 0x01 (0002ms, 0497ms total)
T0F44 042:135 JLINK_WriteMemEx(0xE0001000, 0x001C Bytes, ..., Flags = 0x02000004) - Data: 01 00 00 00 00 00 00 00 00 00 00 00 00 00 00 00 ... -- CPU_WriteMem(28 bytes @ 0xE0001000)  returns 0x1C (0003ms, 0500ms total)
T0F44 042:138 JLINK_Halt()  returns 0x00 (0000ms, 0500ms total)
T0F44 042:138 JLINK_IsHalted()  returns TRUE (0000ms, 0500ms total)
T0F44 042:145 JLINK_WriteMem(0x20000000, 0x0180 Bytes, ...) - Data: 00 BE 0A E0 0D 78 2D 06 68 40 08 24 40 00 00 D3 ... -- CPU_WriteMem(384 bytes @ 0x20000000)  returns 0x180 (0008ms, 0508ms total)
T0F44 042:153 JLINK_WriteReg(R0, 0x08000000)  returns 0x00 (0000ms, 0508ms total)
T0F44 042:153 JLINK_WriteReg(R1, 0x007A1200)  returns 0x00 (0000ms, 0508ms total)
T0F44 042:153 JLINK_WriteReg(R2, 0x00000001)  returns 0x00 (0000ms, 0508ms total)
T0F44 042:153 JLINK_WriteReg(R3, 0x00000000)  returns 0x00 (0000ms, 0508ms total)
T0F44 042:153 JLINK_WriteReg(R4, 0x00000000)  returns 0x00 (0000ms, 0508ms total)
T0F44 042:153 JLINK_WriteReg(R5, 0x00000000)  returns 0x00 (0001ms, 0509ms total)
T0F44 042:154 JLINK_WriteReg(R6, 0x00000000)  returns 0x00 (0000ms, 0509ms total)
T0F44 042:154 JLINK_WriteReg(R7, 0x00000000)  returns 0x00 (0000ms, 0509ms total)
T0F44 042:154 JLINK_WriteReg(R8, 0x00000000)  returns 0x00 (0000ms, 0509ms total)
T0F44 042:154 JLINK_WriteReg(R9, 0x2000017C)  returns 0x00 (0000ms, 0509ms total)
T0F44 042:154 JLINK_WriteReg(R10, 0x00000000)  returns 0x00 (0000ms, 0509ms total)
T0F44 042:154 JLINK_WriteReg(R11, 0x00000000)  returns 0x00 (0000ms, 0509ms total)
T0F44 042:154 JLINK_WriteReg(R12, 0x00000000)  returns 0x00 (0000ms, 0509ms total)
T0F44 042:154 JLINK_WriteReg(R13 (SP), 0x20001000)  returns 0x00 (0000ms, 0509ms total)
T0F44 042:154 JLINK_WriteReg(R14, 0x20000001)  returns 0x00 (0000ms, 0509ms total)
T0F44 042:154 JLINK_WriteReg(R15 (PC), 0x20000054)  returns 0x00 (0000ms, 0509ms total)
T0F44 042:154 JLINK_WriteReg(XPSR, 0x01000000)  returns 0x00 (0000ms, 0509ms total)
T0F44 042:154 JLINK_WriteReg(MSP, 0x20001000)  returns 0x00 (0000ms, 0509ms total)
T0F44 042:154 JLINK_WriteReg(PSP, 0x20001000)  returns 0x00 (0000ms, 0509ms total)
T0F44 042:154 JLINK_WriteReg(CFBP, 0x00000000)  returns 0x00 (0000ms, 0509ms total)
T0F44 042:154 JLINK_SetBPEx(Addr = 0x20000000, Type = 0xFFFFFFF2) -- CPU_ReadMem(2 bytes @ 0x20000000)  returns 0x00000001 (0002ms, 0511ms total)
T0F44 042:156 JLINK_Go() -- CPU_WriteMem(2 bytes @ 0x20000000) -- CPU_ReadMem(4 bytes @ 0xE0001000) -- CPU_WriteMem(4 bytes @ 0xE0002008) -- CPU_WriteMem(4 bytes @ 0xE000200C) -- CPU_WriteMem(4 bytes @ 0xE0002010) -- CPU_WriteMem(4 bytes @ 0xE0002014) -- CPU_WriteMem(4 bytes @ 0xE0002018) -- CPU_WriteMem(4 bytes @ 0xE000201C) -- CPU_WriteMem(4 bytes @ 0xE0001004) (0010ms, 0521ms total)
T0F44 042:166 JLINK_IsHalted() -- CPU_ReadMem(2 bytes @ 0x20000000)  returns TRUE (0006ms, 0527ms total)
T0F44 042:172 JLINK_ReadReg(R15 (PC))  returns 0x20000000 (0000ms, 0521ms total)
T0F44 042:172 JLINK_ClrBPEx(BPHandle = 0x00000001)  returns 0x00 (0000ms, 0521ms total)
T0F44 042:172 JLINK_ReadReg(R0)  returns 0x00000000 (0000ms, 0521ms total)
T0F44 042:175 JLINK_WriteReg(R0, 0x08000000)  returns 0x00 (0000ms, 0521ms total)
T0F44 042:175 JLINK_WriteReg(R1, 0x00004000)  returns 0x00 (0000ms, 0521ms total)
T0F44 042:175 JLINK_WriteReg(R2, 0x000000FF)  returns 0x00 (0000ms, 0521ms total)
T0F44 042:175 JLINK_WriteReg(R3, 0x00000000)  returns 0x00 (0000ms, 0521ms total)
T0F44 042:175 JLINK_WriteReg(R4, 0x00000000)  returns 0x00 (0000ms, 0521ms total)
T0F44 042:175 JLINK_WriteReg(R5, 0x00000000)  returns 0x00 (0000ms, 0521ms total)
T0F44 042:175 JLINK_WriteReg(R6, 0x00000000)  returns 0x00 (0000ms, 0521ms total)
T0F44 042:175 JLINK_WriteReg(R7, 0x00000000)  returns 0x00 (0000ms, 0521ms total)
T0F44 042:175 JLINK_WriteReg(R8, 0x00000000)  returns 0x00 (0000ms, 0521ms total)
T0F44 042:175 JLINK_WriteReg(R9, 0x2000017C)  returns 0x00 (0001ms, 0522ms total)
T0F44 042:176 JLINK_WriteReg(R10, 0x00000000)  returns 0x00 (0000ms, 0522ms total)
T0F44 042:176 JLINK_WriteReg(R11, 0x00000000)  returns 0x00 (0000ms, 0522ms total)
T0F44 042:176 JLINK_WriteReg(R12, 0x00000000)  returns 0x00 (0000ms, 0522ms total)
T0F44 042:176 JLINK_WriteReg(R13 (SP), 0x20001000)  returns 0x00 (0000ms, 0522ms total)
T0F44 042:176 JLINK_WriteReg(R14, 0x20000001)  returns 0x00 (0000ms, 0522ms total)
T0F44 042:176 JLINK_WriteReg(R15 (PC), 0x20000020)  returns 0x00 (0000ms, 0522ms total)
T0F44 042:176 JLINK_WriteReg(XPSR, 0x01000000)  returns 0x00 (0000ms, 0522ms total)
T0F44 042:176 JLINK_WriteReg(MSP, 0x20001000)  returns 0x00 (0000ms, 0522ms total)
T0F44 042:176 JLINK_WriteReg(PSP, 0x20001000)  returns 0x00 (0000ms, 0522ms total)
T0F44 042:176 JLINK_WriteReg(CFBP, 0x00000000)  returns 0x00 (0000ms, 0522ms total)
T0F44 042:176 JLINK_SetBPEx(Addr = 0x20000000, Type = 0xFFFFFFF2)  returns 0x00000002 (0000ms, 0522ms total)
T0F44 042:176 JLINK_Go() -- CPU_ReadMem(4 bytes @ 0xE0001000) (0005ms, 0527ms total)
T0F44 042:181 JLINK_IsHalted() -- CPU_ReadMem(2 bytes @ 0x20000000)  returns TRUE (0006ms, 0533ms total)
T0F44 042:187 JLINK_ReadReg(R15 (PC))  returns 0x20000000 (0000ms, 0527ms total)
T0F44 042:187 JLINK_ClrBPEx(BPHandle = 0x00000002)  returns 0x00 (0000ms, 0527ms total)
T0F44 042:187 JLINK_ReadReg(R0)  returns 0x00000001 (0000ms, 0527ms total)
T0F44 042:187 JLINK_WriteReg(R0, 0x08000000)  returns 0x00 (0000ms, 0527ms total)
T0F44 042:187 JLINK_WriteReg(R1, 0x00004000)  returns 0x00 (0000ms, 0527ms total)
T0F44 042:187 JLINK_WriteReg(R2, 0x000000FF)  returns 0x00 (0000ms, 0527ms total)
T0F44 042:187 JLINK_WriteReg(R3, 0x00000000)  returns 0x00 (0000ms, 0527ms total)
T0F44 042:187 JLINK_WriteReg(R4, 0x00000000)  returns 0x00 (0000ms, 0527ms total)
T0F44 042:187 JLINK_WriteReg(R5, 0x00000000)  returns 0x00 (0000ms, 0527ms total)
T0F44 042:187 JLINK_WriteReg(R6, 0x00000000)  returns 0x00 (0000ms, 0527ms total)
T0F44 042:187 JLINK_WriteReg(R7, 0x00000000)  returns 0x00 (0000ms, 0527ms total)
T0F44 042:187 JLINK_WriteReg(R8, 0x00000000)  returns 0x00 (0000ms, 0527ms total)
T0F44 042:187 JLINK_WriteReg(R9, 0x2000017C)  returns 0x00 (0000ms, 0527ms total)
T0F44 042:187 JLINK_WriteReg(R10, 0x00000000)  returns 0x00 (0000ms, 0527ms total)
T0F44 042:187 JLINK_WriteReg(R11, 0x00000000)  returns 0x00 (0000ms, 0527ms total)
T0F44 042:187 JLINK_WriteReg(R12, 0x00000000)  returns 0x00 (0001ms, 0528ms total)
T0F44 042:188 JLINK_WriteReg(R13 (SP), 0x20001000)  returns 0x00 (0000ms, 0528ms total)
T0F44 042:188 JLINK_WriteReg(R14, 0x20000001)  returns 0x00 (0000ms, 0528ms total)
T0F44 042:188 JLINK_WriteReg(R15 (PC), 0x200000BC)  returns 0x00 (0000ms, 0528ms total)
T0F44 042:188 JLINK_WriteReg(XPSR, 0x01000000)  returns 0x00 (0000ms, 0528ms total)
T0F44 042:188 JLINK_WriteReg(MSP, 0x20001000)  returns 0x00 (0000ms, 0528ms total)
T0F44 042:188 JLINK_WriteReg(PSP, 0x20001000)  returns 0x00 (0000ms, 0528ms total)
T0F44 042:188 JLINK_WriteReg(CFBP, 0x00000000)  returns 0x00 (0000ms, 0528ms total)
T0F44 042:188 JLINK_SetBPEx(Addr = 0x20000000, Type = 0xFFFFFFF2)  returns 0x00000003 (0000ms, 0528ms total)
T0F44 042:188 JLINK_Go() -- CPU_ReadMem(4 bytes @ 0xE0001000) (0004ms, 0532ms total)
T0F44 042:192 JLINK_IsHalted()  returns FALSE (0001ms, 0533ms total)
T0F44 042:305 JLINK_IsHalted()  returns FALSE (0002ms, 0534ms total)
T0F44 042:309 JLINK_IsHalted()  returns FALSE (0001ms, 0533ms total)
T0F44 042:312 JLINK_IsHalted()  returns FALSE (0002ms, 0534ms total)
T0F44 042:316 JLINK_IsHalted()  returns FALSE (0001ms, 0533ms total)
T0F44 042:319 JLINK_IsHalted()  returns FALSE (0001ms, 0533ms total)
T0F44 042:322 JLINK_IsHalted()  returns FALSE (0001ms, 0533ms total)
T0F44 042:326 JLINK_IsHalted()  returns FALSE (0001ms, 0533ms total)
T0F44 042:333 JLINK_IsHalted()  returns FALSE (0001ms, 0534ms total)
T0F44 042:336 JLINK_IsHalted()  returns FALSE (0001ms, 0534ms total)
T0F44 042:339 JLINK_IsHalted()  returns FALSE (0001ms, 0534ms total)
T0F44 042:342 JLINK_IsHalted()  returns FALSE (0001ms, 0534ms total)
T0F44 042:349 JLINK_IsHalted()  returns FALSE (0001ms, 0534ms total)
T0F44 042:352 JLINK_IsHalted()  returns FALSE (0001ms, 0534ms total)
T0F44 042:355 JLINK_IsHalted()  returns FALSE (0001ms, 0534ms total)
T0F44 042:358 JLINK_IsHalted()  returns FALSE (0001ms, 0534ms total)
T0F44 042:361 JLINK_IsHalted()  returns FALSE (0001ms, 0534ms total)
T0F44 042:364 JLINK_IsHalted()  returns FALSE (0000ms, 0533ms total)
T0F44 042:366 JLINK_IsHalted()  returns FALSE (0001ms, 0534ms total)
T0F44 042:369 JLINK_IsHalted()  returns FALSE (0001ms, 0534ms total)
T0F44 042:374 JLINK_IsHalted()  returns FALSE (0001ms, 0534ms total)
T0F44 042:377 JLINK_IsHalted()  returns FALSE (0001ms, 0534ms total)
T0F44 042:380 JLINK_IsHalted()  returns FALSE (0000ms, 0533ms total)
T0F44 042:382 JLINK_IsHalted()  returns FALSE (0001ms, 0534ms total)
T0F44 042:385 JLINK_IsHalted()  returns FALSE (0001ms, 0534ms total)
T0F44 042:388 JLINK_IsHalted()  returns FALSE (0001ms, 0534ms total)
T0F44 042:391 JLINK_IsHalted()  returns FALSE (0001ms, 0534ms total)
T0F44 042:394 JLINK_IsHalted()  returns FALSE (0001ms, 0534ms total)
T0F44 042:397 JLINK_IsHalted()  returns FALSE (0001ms, 0534ms total)
T0F44 042:400 JLINK_IsHalted()  returns FALSE (0002ms, 0535ms total)
T0F44 042:406 JLINK_IsHalted()  returns FALSE (0001ms, 0534ms total)
T0F44 042:412 JLINK_IsHalted()  returns FALSE (0001ms, 0534ms total)
T0F44 042:415 JLINK_IsHalted()  returns FALSE (0001ms, 0534ms total)
T0F44 042:418 JLINK_IsHalted()  returns FALSE (0001ms, 0534ms total)
T0F44 042:421 JLINK_IsHalted()  returns FALSE (0001ms, 0534ms total)
T0F44 042:425 JLINK_IsHalted()  returns FALSE (0001ms, 0534ms total)
T0F44 042:428 JLINK_IsHalted()  returns FALSE (0001ms, 0534ms total)
T0F44 042:485 JLINK_IsHalted()  returns FALSE (0001ms, 0534ms total)
T0F44 042:488 JLINK_IsHalted()  returns FALSE (0000ms, 0533ms total)
T0F44 042:491 JLINK_IsHalted()  returns FALSE (0001ms, 0534ms total)
T0F44 042:494 JLINK_IsHalted()  returns FALSE (0001ms, 0534ms total)
T0F44 042:515 JLINK_IsHalted()  returns FALSE (0001ms, 0534ms total)
T0F44 042:518 JLINK_IsHalted()  returns FALSE (0001ms, 0534ms total)
T0F44 042:535 JLINK_IsHalted()  returns FALSE (0002ms, 0535ms total)
T0F44 042:539 JLINK_IsHalted()  returns FALSE (0001ms, 0534ms total)
T0F44 042:543 JLINK_IsHalted()  returns FALSE (0001ms, 0534ms total)
T0F44 042:546 JLINK_IsHalted() -- CPU_ReadMem(2 bytes @ 0x20000000)  returns TRUE (0007ms, 0540ms total)
T0F44 042:553 JLINK_ReadReg(R15 (PC))  returns 0x20000000 (0000ms, 0533ms total)
T0F44 042:553 JLINK_ClrBPEx(BPHandle = 0x00000003)  returns 0x00 (0000ms, 0533ms total)
T0F44 042:553 JLINK_ReadReg(R0)  returns 0x00000000 (0000ms, 0533ms total)
T0F44 042:554 JLINK_WriteReg(R0, 0x08004000)  returns 0x00 (0000ms, 0533ms total)
T0F44 042:554 JLINK_WriteReg(R1, 0x00004000)  returns 0x00 (0000ms, 0533ms total)
T0F44 042:554 JLINK_WriteReg(R2, 0x000000FF)  returns 0x00 (0000ms, 0533ms total)
T0F44 042:554 JLINK_WriteReg(R3, 0x00000000)  returns 0x00 (0000ms, 0533ms total)
T0F44 042:554 JLINK_WriteReg(R4, 0x00000000)  returns 0x00 (0000ms, 0533ms total)
T0F44 042:554 JLINK_WriteReg(R5, 0x00000000)  returns 0x00 (0001ms, 0534ms total)
T0F44 042:555 JLINK_WriteReg(R6, 0x00000000)  returns 0x00 (0000ms, 0534ms total)
T0F44 042:555 JLINK_WriteReg(R7, 0x00000000)  returns 0x00 (0000ms, 0534ms total)
T0F44 042:555 JLINK_WriteReg(R8, 0x00000000)  returns 0x00 (0000ms, 0534ms total)
T0F44 042:555 JLINK_WriteReg(R9, 0x2000017C)  returns 0x00 (0000ms, 0534ms total)
T0F44 042:555 JLINK_WriteReg(R10, 0x00000000)  returns 0x00 (0000ms, 0534ms total)
T0F44 042:555 JLINK_WriteReg(R11, 0x00000000)  returns 0x00 (0000ms, 0534ms total)
T0F44 042:555 JLINK_WriteReg(R12, 0x00000000)  returns 0x00 (0000ms, 0534ms total)
T0F44 042:555 JLINK_WriteReg(R13 (SP), 0x20001000)  returns 0x00 (0000ms, 0534ms total)
T0F44 042:555 JLINK_WriteReg(R14, 0x20000001)  returns 0x00 (0000ms, 0534ms total)
T0F44 042:555 JLINK_WriteReg(R15 (PC), 0x20000020)  returns 0x00 (0000ms, 0534ms total)
T0F44 042:555 JLINK_WriteReg(XPSR, 0x01000000)  returns 0x00 (0000ms, 0534ms total)
T0F44 042:555 JLINK_WriteReg(MSP, 0x20001000)  returns 0x00 (0000ms, 0534ms total)
T0F44 042:555 JLINK_WriteReg(PSP, 0x20001000)  returns 0x00 (0000ms, 0534ms total)
T0F44 042:555 JLINK_WriteReg(CFBP, 0x00000000)  returns 0x00 (0000ms, 0534ms total)
T0F44 042:555 JLINK_SetBPEx(Addr = 0x20000000, Type = 0xFFFFFFF2)  returns 0x00000004 (0000ms, 0534ms total)
T0F44 042:555 JLINK_Go() -- CPU_ReadMem(4 bytes @ 0xE0001000) (0004ms, 0538ms total)
T0F44 042:559 JLINK_IsHalted() -- CPU_ReadMem(2 bytes @ 0x20000000)  returns TRUE (0005ms, 0543ms total)
T0F44 042:564 JLINK_ReadReg(R15 (PC))  returns 0x20000000 (0000ms, 0538ms total)
T0F44 042:564 JLINK_ClrBPEx(BPHandle = 0x00000004)  returns 0x00 (0000ms, 0538ms total)
T0F44 042:564 JLINK_ReadReg(R0)  returns 0x00000001 (0000ms, 0538ms total)
T0F44 042:564 JLINK_WriteReg(R0, 0x08004000)  returns 0x00 (0001ms, 0539ms total)
T0F44 042:565 JLINK_WriteReg(R1, 0x00004000)  returns 0x00 (0000ms, 0539ms total)
T0F44 042:565 JLINK_WriteReg(R2, 0x000000FF)  returns 0x00 (0000ms, 0539ms total)
T0F44 042:565 JLINK_WriteReg(R3, 0x00000000)  returns 0x00 (0000ms, 0539ms total)
T0F44 042:565 JLINK_WriteReg(R4, 0x00000000)  returns 0x00 (0000ms, 0539ms total)
T0F44 042:565 JLINK_WriteReg(R5, 0x00000000)  returns 0x00 (0000ms, 0539ms total)
T0F44 042:565 JLINK_WriteReg(R6, 0x00000000)  returns 0x00 (0000ms, 0539ms total)
T0F44 042:565 JLINK_WriteReg(R7, 0x00000000)  returns 0x00 (0000ms, 0539ms total)
T0F44 042:565 JLINK_WriteReg(R8, 0x00000000)  returns 0x00 (0000ms, 0539ms total)
T0F44 042:565 JLINK_WriteReg(R9, 0x2000017C)  returns 0x00 (0000ms, 0539ms total)
T0F44 042:565 JLINK_WriteReg(R10, 0x00000000)  returns 0x00 (0000ms, 0539ms total)
T0F44 042:565 JLINK_WriteReg(R11, 0x00000000)  returns 0x00 (0000ms, 0539ms total)
T0F44 042:565 JLINK_WriteReg(R12, 0x00000000)  returns 0x00 (0000ms, 0539ms total)
T0F44 042:565 JLINK_WriteReg(R13 (SP), 0x20001000)  returns 0x00 (0000ms, 0539ms total)
T0F44 042:565 JLINK_WriteReg(R14, 0x20000001)  returns 0x00 (0000ms, 0539ms total)
T0F44 042:565 JLINK_WriteReg(R15 (PC), 0x200000BC)  returns 0x00 (0000ms, 0539ms total)
T0F44 042:565 JLINK_WriteReg(XPSR, 0x01000000)  returns 0x00 (0000ms, 0539ms total)
T0F44 042:565 JLINK_WriteReg(MSP, 0x20001000)  returns 0x00 (0000ms, 0539ms total)
T0F44 042:565 JLINK_WriteReg(PSP, 0x20001000)  returns 0x00 (0001ms, 0540ms total)
T0F44 042:566 JLINK_WriteReg(CFBP, 0x00000000)  returns 0x00 (0000ms, 0540ms total)
T0F44 042:566 JLINK_SetBPEx(Addr = 0x20000000, Type = 0xFFFFFFF2)  returns 0x00000005 (0000ms, 0540ms total)
T0F44 042:566 JLINK_Go() -- CPU_ReadMem(4 bytes @ 0xE0001000) (0004ms, 0544ms total)
T0F44 042:570 JLINK_IsHalted()  returns FALSE (0001ms, 0545ms total)
T0F44 042:575 JLINK_IsHalted()  returns FALSE (0001ms, 0545ms total)
T0F44 042:578 JLINK_IsHalted()  returns FALSE (0001ms, 0545ms total)
T0F44 042:581 JLINK_IsHalted()  returns FALSE (0001ms, 0545ms total)
T0F44 042:584 JLINK_IsHalted()  returns FALSE (0001ms, 0545ms total)
T0F44 042:590 JLINK_IsHalted()  returns FALSE (0001ms, 0545ms total)
T0F44 042:593 JLINK_IsHalted()  returns FALSE (0001ms, 0545ms total)
T0F44 042:597 JLINK_IsHalted()  returns FALSE (0002ms, 0546ms total)
T0F44 042:601 JLINK_IsHalted()  returns FALSE (0001ms, 0545ms total)
T0F44 042:604 JLINK_IsHalted()  returns FALSE (0001ms, 0545ms total)
T0F44 042:607 JLINK_IsHalted()  returns FALSE (0001ms, 0545ms total)
T0F44 042:611 JLINK_IsHalted()  returns FALSE (0001ms, 0545ms total)
T0F44 042:615 JLINK_IsHalted()  returns FALSE (0001ms, 0545ms total)
T0F44 042:618 JLINK_IsHalted()  returns FALSE (0001ms, 0545ms total)
T0F44 042:621 JLINK_IsHalted()  returns FALSE (0001ms, 0545ms total)
T0F44 042:624 JLINK_IsHalted()  returns FALSE (0000ms, 0544ms total)
T0F44 042:626 JLINK_IsHalted()  returns FALSE (0001ms, 0545ms total)
T0F44 042:629 JLINK_IsHalted()  returns FALSE (0001ms, 0545ms total)
T0F44 042:632 JLINK_IsHalted()  returns FALSE (0001ms, 0545ms total)
T0F44 042:635 JLINK_IsHalted()  returns FALSE (0001ms, 0545ms total)
T0F44 042:638 JLINK_IsHalted()  returns FALSE (0001ms, 0545ms total)
T0F44 042:641 JLINK_IsHalted()  returns FALSE (0001ms, 0545ms total)
T0F44 042:644 JLINK_IsHalted()  returns FALSE (0001ms, 0545ms total)
T0F44 042:648 JLINK_IsHalted()  returns FALSE (0001ms, 0545ms total)
T0F44 042:651 JLINK_IsHalted()  returns FALSE (0001ms, 0545ms total)
T0F44 042:654 JLINK_IsHalted()  returns FALSE (0001ms, 0545ms total)
T0F44 042:664 JLINK_IsHalted()  returns FALSE (0001ms, 0545ms total)
T0F44 042:667 JLINK_IsHalted()  returns FALSE (0001ms, 0545ms total)
T0F44 042:670 JLINK_IsHalted()  returns FALSE (0001ms, 0545ms total)
T0F44 042:673 JLINK_IsHalted()  returns FALSE (0001ms, 0545ms total)
T0F44 042:677 JLINK_IsHalted()  returns FALSE (0001ms, 0545ms total)
T0F44 042:680 JLINK_IsHalted()  returns FALSE (0000ms, 0544ms total)
T0F44 042:682 JLINK_IsHalted()  returns FALSE (0001ms, 0545ms total)
T0F44 042:685 JLINK_IsHalted()  returns FALSE (0001ms, 0545ms total)
T0F44 042:689 JLINK_IsHalted()  returns FALSE (0001ms, 0545ms total)
T0F44 042:692 JLINK_IsHalted()  returns FALSE (0000ms, 0544ms total)
T0F44 042:694 JLINK_IsHalted()  returns FALSE (0001ms, 0545ms total)
T0F44 042:697 JLINK_IsHalted()  returns FALSE (0001ms, 0545ms total)
T0F44 042:701 JLINK_IsHalted()  returns FALSE (0002ms, 0546ms total)
T0F44 042:705 JLINK_IsHalted()  returns FALSE (0001ms, 0545ms total)
T0F44 042:708 JLINK_IsHalted()  returns FALSE (0000ms, 0544ms total)
T0F44 042:711 JLINK_IsHalted()  returns FALSE (0000ms, 0544ms total)
T0F44 042:713 JLINK_IsHalted()  returns FALSE (0001ms, 0545ms total)
T0F44 042:716 JLINK_IsHalted()  returns FALSE (0000ms, 0544ms total)
T0F44 042:718 JLINK_IsHalted()  returns FALSE (0001ms, 0545ms total)
T0F44 042:721 JLINK_IsHalted()  returns FALSE (0001ms, 0545ms total)
T0F44 042:724 JLINK_IsHalted()  returns FALSE (0001ms, 0545ms total)
T0F44 042:727 JLINK_IsHalted()  returns FALSE (0001ms, 0545ms total)
T0F44 042:730 JLINK_IsHalted()  returns FALSE (0001ms, 0545ms total)
T0F44 042:733 JLINK_IsHalted()  returns FALSE (0002ms, 0546ms total)
T0F44 042:737 JLINK_IsHalted()  returns FALSE (0001ms, 0545ms total)
T0F44 042:740 JLINK_IsHalted()  returns FALSE (0000ms, 0544ms total)
T0F44 042:743 JLINK_IsHalted()  returns FALSE (0001ms, 0545ms total)
T0F44 042:746 JLINK_IsHalted()  returns FALSE (0001ms, 0545ms total)
T0F44 042:749 JLINK_IsHalted()  returns FALSE (0001ms, 0545ms total)
T0F44 042:752 JLINK_IsHalted()  returns FALSE (0001ms, 0545ms total)
T0F44 042:755 JLINK_IsHalted()  returns FALSE (0001ms, 0545ms total)
T0F44 042:758 JLINK_IsHalted()  returns FALSE (0002ms, 0546ms total)
T0F44 042:762 JLINK_IsHalted()  returns FALSE (0002ms, 0546ms total)
T0F44 042:769 JLINK_IsHalted()  returns FALSE (0001ms, 0545ms total)
T0F44 042:773 JLINK_IsHalted()  returns FALSE (0001ms, 0545ms total)
T0F44 042:776 JLINK_IsHalted()  returns FALSE (0000ms, 0544ms total)
T0F44 042:778 JLINK_IsHalted()  returns FALSE (0001ms, 0545ms total)
T0F44 042:781 JLINK_IsHalted()  returns FALSE (0001ms, 0545ms total)
T0F44 042:784 JLINK_IsHalted()  returns FALSE (0001ms, 0545ms total)
T0F44 042:787 JLINK_IsHalted()  returns FALSE (0001ms, 0545ms total)
T0F44 042:790 JLINK_IsHalted()  returns FALSE (0001ms, 0545ms total)
T0F44 042:793 JLINK_IsHalted()  returns FALSE (0002ms, 0546ms total)
T0F44 042:797 JLINK_IsHalted()  returns FALSE (0002ms, 0546ms total)
T0F44 042:804 JLINK_IsHalted()  returns FALSE (0001ms, 0545ms total)
T0F44 042:807 JLINK_IsHalted()  returns FALSE (0001ms, 0545ms total)
T0F44 042:810 JLINK_IsHalted()  returns FALSE (0001ms, 0545ms total)
T0F44 042:813 JLINK_IsHalted()  returns FALSE (0001ms, 0545ms total)
T0F44 042:816 JLINK_IsHalted()  returns FALSE (0000ms, 0544ms total)
T0F44 042:818 JLINK_IsHalted()  returns FALSE (0001ms, 0545ms total)
T0F44 042:822 JLINK_IsHalted()  returns FALSE (0002ms, 0546ms total)
T0F44 042:826 JLINK_IsHalted()  returns FALSE (0001ms, 0545ms total)
T0F44 042:829 JLINK_IsHalted()  returns FALSE (0001ms, 0545ms total)
T0F44 042:832 JLINK_IsHalted()  returns FALSE (0001ms, 0545ms total)
T0F44 042:835 JLINK_IsHalted()  returns FALSE (0001ms, 0545ms total)
T0F44 042:838 JLINK_IsHalted()  returns FALSE (0001ms, 0545ms total)
T0F44 042:842 JLINK_IsHalted()  returns FALSE (0001ms, 0545ms total)
T0F44 042:846 JLINK_IsHalted()  returns FALSE (0001ms, 0545ms total)
T0F44 042:849 JLINK_IsHalted()  returns FALSE (0001ms, 0545ms total)
T0F44 042:852 JLINK_IsHalted()  returns FALSE (0001ms, 0545ms total)
T0F44 042:855 JLINK_IsHalted()  returns FALSE (0001ms, 0545ms total)
T0F44 042:858 JLINK_IsHalted()  returns FALSE (0001ms, 0545ms total)
T0F44 042:861 JLINK_IsHalted()  returns FALSE (0001ms, 0545ms total)
T0F44 042:864 JLINK_IsHalted()  returns FALSE (0000ms, 0544ms total)
T0F44 042:866 JLINK_IsHalted()  returns FALSE (0001ms, 0545ms total)
T0F44 042:869 JLINK_IsHalted()  returns FALSE (0001ms, 0545ms total)
T0F44 042:873 JLINK_IsHalted()  returns FALSE (0001ms, 0545ms total)
T0F44 042:878 JLINK_IsHalted()  returns FALSE (0002ms, 0546ms total)
T0F44 042:882 JLINK_IsHalted()  returns FALSE (0002ms, 0546ms total)
T0F44 042:886 JLINK_IsHalted()  returns FALSE (0001ms, 0545ms total)
T0F44 042:889 JLINK_IsHalted()  returns FALSE (0001ms, 0545ms total)
T0F44 042:893 JLINK_IsHalted()  returns FALSE (0001ms, 0545ms total)
T0F44 042:896 JLINK_IsHalted()  returns FALSE (0001ms, 0545ms total)
T0F44 042:899 JLINK_IsHalted()  returns FALSE (0001ms, 0545ms total)
T0F44 042:902 JLINK_IsHalted()  returns FALSE (0001ms, 0545ms total)
T0F44 042:905 JLINK_IsHalted()  returns FALSE (0001ms, 0545ms total)
T0F44 042:910 JLINK_IsHalted() -- CPU_ReadMem(2 bytes @ 0x20000000)  returns TRUE (0006ms, 0550ms total)
T0F44 042:916 JLINK_ReadReg(R15 (PC))  returns 0x20000000 (0000ms, 0544ms total)
T0F44 042:916 JLINK_ClrBPEx(BPHandle = 0x00000005)  returns 0x00 (0000ms, 0544ms total)
T0F44 042:916 JLINK_ReadReg(R0)  returns 0x00000000 (0001ms, 0545ms total)
T0F44 042:917 JLINK_WriteReg(R0, 0x00000001)  returns 0x00 (0001ms, 0546ms total)
T0F44 042:918 JLINK_WriteReg(R1, 0x00004000)  returns 0x00 (0000ms, 0546ms total)
T0F44 042:918 JLINK_WriteReg(R2, 0x000000FF)  returns 0x00 (0000ms, 0546ms total)
T0F44 042:918 JLINK_WriteReg(R3, 0x00000000)  returns 0x00 (0000ms, 0546ms total)
T0F44 042:918 JLINK_WriteReg(R4, 0x00000000)  returns 0x00 (0000ms, 0546ms total)
T0F44 042:918 JLINK_WriteReg(R5, 0x00000000)  returns 0x00 (0000ms, 0546ms total)
T0F44 042:918 JLINK_WriteReg(R6, 0x00000000)  returns 0x00 (0000ms, 0546ms total)
T0F44 042:918 JLINK_WriteReg(R7, 0x00000000)  returns 0x00 (0000ms, 0546ms total)
T0F44 042:918 JLINK_WriteReg(R8, 0x00000000)  returns 0x00 (0000ms, 0546ms total)
T0F44 042:918 JLINK_WriteReg(R9, 0x2000017C)  returns 0x00 (0000ms, 0546ms total)
T0F44 042:918 JLINK_WriteReg(R10, 0x00000000)  returns 0x00 (0000ms, 0546ms total)
T0F44 042:918 JLINK_WriteReg(R11, 0x00000000)  returns 0x00 (0000ms, 0546ms total)
T0F44 042:918 JLINK_WriteReg(R12, 0x00000000)  returns 0x00 (0000ms, 0546ms total)
T0F44 042:918 JLINK_WriteReg(R13 (SP), 0x20001000)  returns 0x00 (0000ms, 0546ms total)
T0F44 042:918 JLINK_WriteReg(R14, 0x20000001)  returns 0x00 (0000ms, 0546ms total)
T0F44 042:918 JLINK_WriteReg(R15 (PC), 0x20000082)  returns 0x00 (0000ms, 0546ms total)
T0F44 042:918 JLINK_WriteReg(XPSR, 0x01000000)  returns 0x00 (0001ms, 0547ms total)
T0F44 042:919 JLINK_WriteReg(MSP, 0x20001000)  returns 0x00 (0000ms, 0547ms total)
T0F44 042:919 JLINK_WriteReg(PSP, 0x20001000)  returns 0x00 (0000ms, 0547ms total)
T0F44 042:919 JLINK_WriteReg(CFBP, 0x00000000)  returns 0x00 (0000ms, 0547ms total)
T0F44 042:919 JLINK_SetBPEx(Addr = 0x20000000, Type = 0xFFFFFFF2)  returns 0x00000006 (0000ms, 0547ms total)
T0F44 042:919 JLINK_Go() -- CPU_ReadMem(4 bytes @ 0xE0001000) (0004ms, 0551ms total)
T0F44 042:924 JLINK_IsHalted() -- CPU_ReadMem(2 bytes @ 0x20000000)  returns TRUE (0004ms, 0555ms total)
T0F44 042:929 JLINK_ReadReg(R15 (PC))  returns 0x20000000 (0000ms, 0551ms total)
T0F44 042:929 JLINK_ClrBPEx(BPHandle = 0x00000006)  returns 0x00 (0000ms, 0551ms total)
T0F44 042:929 JLINK_ReadReg(R0)  returns 0x00000000 (0000ms, 0551ms total)
T0F44 042:991 JLINK_WriteMem(0x20000000, 0x0180 Bytes, ...) - Data: 00 BE 0A E0 0D 78 2D 06 68 40 08 24 40 00 00 D3 ... -- CPU_WriteMem(384 bytes @ 0x20000000)  returns 0x180 (0006ms, 0557ms total)
T0F44 042:997 JLINK_WriteReg(R0, 0x08000000)  returns 0x00 (0000ms, 0557ms total)
T0F44 042:997 JLINK_WriteReg(R1, 0x007A1200)  returns 0x00 (0000ms, 0557ms total)
T0F44 042:997 JLINK_WriteReg(R2, 0x00000002)  returns 0x00 (0000ms, 0557ms total)
T0F44 042:997 JLINK_WriteReg(R3, 0x00000000)  returns 0x00 (0000ms, 0557ms total)
T0F44 042:997 JLINK_WriteReg(R4, 0x00000000)  returns 0x00 (0000ms, 0557ms total)
T0F44 042:998 JLINK_WriteReg(R5, 0x00000000)  returns 0x00 (0000ms, 0558ms total)
T0F44 042:998 JLINK_WriteReg(R6, 0x00000000)  returns 0x00 (0000ms, 0558ms total)
T0F44 042:998 JLINK_WriteReg(R7, 0x00000000)  returns 0x00 (0000ms, 0558ms total)
T0F44 042:998 JLINK_WriteReg(R8, 0x00000000)  returns 0x00 (0000ms, 0558ms total)
T0F44 042:998 JLINK_WriteReg(R9, 0x2000017C)  returns 0x00 (0000ms, 0558ms total)
T0F44 042:998 JLINK_WriteReg(R10, 0x00000000)  returns 0x00 (0000ms, 0558ms total)
T0F44 042:998 JLINK_WriteReg(R11, 0x00000000)  returns 0x00 (0000ms, 0558ms total)
T0F44 042:998 JLINK_WriteReg(R12, 0x00000000)  returns 0x00 (0000ms, 0558ms total)
T0F44 042:998 JLINK_WriteReg(R13 (SP), 0x20001000)  returns 0x00 (0000ms, 0558ms total)
T0F44 042:998 JLINK_WriteReg(R14, 0x20000001)  returns 0x00 (0000ms, 0558ms total)
T0F44 042:998 JLINK_WriteReg(R15 (PC), 0x20000054)  returns 0x00 (0000ms, 0558ms total)
T0F44 042:998 JLINK_WriteReg(XPSR, 0x01000000)  returns 0x00 (0000ms, 0558ms total)
T0F44 042:998 JLINK_WriteReg(MSP, 0x20001000)  returns 0x00 (0000ms, 0558ms total)
T0F44 042:998 JLINK_WriteReg(PSP, 0x20001000)  returns 0x00 (0000ms, 0558ms total)
T0F44 042:998 JLINK_WriteReg(CFBP, 0x00000000)  returns 0x00 (0000ms, 0558ms total)
T0F44 042:998 JLINK_SetBPEx(Addr = 0x20000000, Type = 0xFFFFFFF2) -- CPU_ReadMem(2 bytes @ 0x20000000)  returns 0x00000007 (0002ms, 0560ms total)
T0F44 043:000 JLINK_Go() -- CPU_WriteMem(2 bytes @ 0x20000000) -- CPU_ReadMem(4 bytes @ 0xE0001000) (0006ms, 0566ms total)
T0F44 043:006 JLINK_IsHalted() -- CPU_ReadMem(2 bytes @ 0x20000000)  returns TRUE (0006ms, 0572ms total)
T0F44 043:012 JLINK_ReadReg(R15 (PC))  returns 0x20000000 (0000ms, 0566ms total)
T0F44 043:012 JLINK_ClrBPEx(BPHandle = 0x00000007)  returns 0x00 (0000ms, 0566ms total)
T0F44 043:012 JLINK_ReadReg(R0)  returns 0x00000000 (0000ms, 0566ms total)
T0F44 043:013 JLINK_WriteMem(0x20000180, 0x0280 Bytes, ...) - Data: B0 1A 00 20 41 13 00 08 81 13 00 08 83 13 00 08 ... -- CPU_WriteMem(640 bytes @ 0x20000180)  returns 0x280 (0009ms, 0575ms total)
T0F44 043:023 JLINK_WriteMem(0x20000400, 0x0180 Bytes, ...) - Data: 52 83 78 29 05 F0 91 83 E9 29 05 F0 ED 82 E4 29 ... -- CPU_WriteMem(384 bytes @ 0x20000400)  returns 0x180 (0006ms, 0581ms total)
T0F44 043:029 JLINK_WriteReg(R0, 0x08000000)  returns 0x00 (0000ms, 0581ms total)
T0F44 043:029 JLINK_WriteReg(R1, 0x00000400)  returns 0x00 (0000ms, 0581ms total)
T0F44 043:029 JLINK_WriteReg(R2, 0x20000180)  returns 0x00 (0000ms, 0581ms total)
T0F44 043:029 JLINK_WriteReg(R3, 0x00000000)  returns 0x00 (0000ms, 0581ms total)
T0F44 043:029 JLINK_WriteReg(R4, 0x00000000)  returns 0x00 (0000ms, 0581ms total)
T0F44 043:029 JLINK_WriteReg(R5, 0x00000000)  returns 0x00 (0000ms, 0581ms total)
T0F44 043:029 JLINK_WriteReg(R6, 0x00000000)  returns 0x00 (0000ms, 0581ms total)
T0F44 043:029 JLINK_WriteReg(R7, 0x00000000)  returns 0x00 (0000ms, 0581ms total)
T0F44 043:029 JLINK_WriteReg(R8, 0x00000000)  returns 0x00 (0000ms, 0581ms total)
T0F44 043:029 JLINK_WriteReg(R9, 0x2000017C)  returns 0x00 (0000ms, 0581ms total)
T0F44 043:029 JLINK_WriteReg(R10, 0x00000000)  returns 0x00 (0000ms, 0581ms total)
T0F44 043:029 JLINK_WriteReg(R11, 0x00000000)  returns 0x00 (0000ms, 0581ms total)
T0F44 043:029 JLINK_WriteReg(R12, 0x00000000)  returns 0x00 (0001ms, 0582ms total)
T0F44 043:030 JLINK_WriteReg(R13 (SP), 0x20001000)  returns 0x00 (0000ms, 0582ms total)
T0F44 043:030 JLINK_WriteReg(R14, 0x20000001)  returns 0x00 (0000ms, 0582ms total)
T0F44 043:030 JLINK_WriteReg(R15 (PC), 0x20000108)  returns 0x00 (0000ms, 0582ms total)
T0F44 043:030 JLINK_WriteReg(XPSR, 0x01000000)  returns 0x00 (0000ms, 0582ms total)
T0F44 043:030 JLINK_WriteReg(MSP, 0x20001000)  returns 0x00 (0000ms, 0582ms total)
T0F44 043:030 JLINK_WriteReg(PSP, 0x20001000)  returns 0x00 (0000ms, 0582ms total)
T0F44 043:030 JLINK_WriteReg(CFBP, 0x00000000)  returns 0x00 (0000ms, 0582ms total)
T0F44 043:030 JLINK_SetBPEx(Addr = 0x20000000, Type = 0xFFFFFFF2)  returns 0x00000008 (0000ms, 0582ms total)
T0F44 043:030 JLINK_Go() -- CPU_ReadMem(4 bytes @ 0xE0001000) (0005ms, 0587ms total)
T0F44 043:035 JLINK_IsHalted()  returns FALSE (0001ms, 0588ms total)
T0F44 043:043 JLINK_IsHalted() -- CPU_ReadMem(2 bytes @ 0x20000000)  returns TRUE (0005ms, 0592ms total)
T0F44 043:048 JLINK_ReadReg(R15 (PC))  returns 0x20000000 (0000ms, 0587ms total)
T0F44 043:048 JLINK_ClrBPEx(BPHandle = 0x00000008)  returns 0x00 (0000ms, 0587ms total)
T0F44 043:048 JLINK_ReadReg(R0)  returns 0x00000000 (0000ms, 0587ms total)
T0F44 043:049 JLINK_WriteMem(0x20000180, 0x0280 Bytes, ...) - Data: 0A 48 C1 63 70 47 19 48 08 49 08 64 18 49 07 48 ... -- CPU_WriteMem(640 bytes @ 0x20000180)  returns 0x280 (0010ms, 0597ms total)
T0F44 043:059 JLINK_WriteMem(0x20000400, 0x0180 Bytes, ...) - Data: 31 46 02 69 86 48 90 47 40 23 85 4A 01 21 20 46 ... -- CPU_WriteMem(384 bytes @ 0x20000400)  returns 0x180 (0006ms, 0603ms total)
T0F44 043:065 JLINK_WriteReg(R0, 0x08000400)  returns 0x00 (0000ms, 0603ms total)
T0F44 043:065 JLINK_WriteReg(R1, 0x00000400)  returns 0x00 (0000ms, 0603ms total)
T0F44 043:065 JLINK_WriteReg(R2, 0x20000180)  returns 0x00 (0000ms, 0603ms total)
T0F44 043:065 JLINK_WriteReg(R3, 0x00000000)  returns 0x00 (0001ms, 0604ms total)
T0F44 043:066 JLINK_WriteReg(R4, 0x00000000)  returns 0x00 (0000ms, 0604ms total)
T0F44 043:066 JLINK_WriteReg(R5, 0x00000000)  returns 0x00 (0000ms, 0604ms total)
T0F44 043:066 JLINK_WriteReg(R6, 0x00000000)  returns 0x00 (0000ms, 0604ms total)
T0F44 043:066 JLINK_WriteReg(R7, 0x00000000)  returns 0x00 (0000ms, 0604ms total)
T0F44 043:066 JLINK_WriteReg(R8, 0x00000000)  returns 0x00 (0000ms, 0604ms total)
T0F44 043:066 JLINK_WriteReg(R9, 0x2000017C)  returns 0x00 (0000ms, 0604ms total)
T0F44 043:066 JLINK_WriteReg(R10, 0x00000000)  returns 0x00 (0000ms, 0604ms total)
T0F44 043:066 JLINK_WriteReg(R11, 0x00000000)  returns 0x00 (0000ms, 0604ms total)
T0F44 043:066 JLINK_WriteReg(R12, 0x00000000)  returns 0x00 (0000ms, 0604ms total)
T0F44 043:066 JLINK_WriteReg(R13 (SP), 0x20001000)  returns 0x00 (0000ms, 0604ms total)
T0F44 043:066 JLINK_WriteReg(R14, 0x20000001)  returns 0x00 (0000ms, 0604ms total)
T0F44 043:066 JLINK_WriteReg(R15 (PC), 0x20000108)  returns 0x00 (0000ms, 0604ms total)
T0F44 043:066 JLINK_WriteReg(XPSR, 0x01000000)  returns 0x00 (0000ms, 0604ms total)
T0F44 043:066 JLINK_WriteReg(MSP, 0x20001000)  returns 0x00 (0000ms, 0604ms total)
T0F44 043:066 JLINK_WriteReg(PSP, 0x20001000)  returns 0x00 (0000ms, 0604ms total)
T0F44 043:066 JLINK_WriteReg(CFBP, 0x00000000)  returns 0x00 (0001ms, 0605ms total)
T0F44 043:067 JLINK_SetBPEx(Addr = 0x20000000, Type = 0xFFFFFFF2)  returns 0x00000009 (0000ms, 0605ms total)
T0F44 043:067 JLINK_Go() -- CPU_ReadMem(4 bytes @ 0xE0001000) (0004ms, 0609ms total)
T0F44 043:071 JLINK_IsHalted()  returns FALSE (0001ms, 0610ms total)
T0F44 043:074 JLINK_IsHalted()  returns FALSE (0001ms, 0610ms total)
T0F44 043:077 JLINK_IsHalted() -- CPU_ReadMem(2 bytes @ 0x20000000)  returns TRUE (0006ms, 0615ms total)
T0F44 043:083 JLINK_ReadReg(R15 (PC))  returns 0x20000000 (0000ms, 0609ms total)
T0F44 043:083 JLINK_ClrBPEx(BPHandle = 0x00000009)  returns 0x00 (0000ms, 0609ms total)
T0F44 043:083 JLINK_ReadReg(R0)  returns 0x00000000 (0000ms, 0609ms total)
T0F44 043:084 JLINK_WriteMem(0x20000180, 0x0280 Bytes, ...) - Data: 34 48 70 BD 30 B5 0B 46 00 21 00 BF 16 E0 0A 24 ... -- CPU_WriteMem(640 bytes @ 0x20000180)  returns 0x280 (0010ms, 0619ms total)
T0F44 043:094 JLINK_WriteMem(0x20000400, 0x0180 Bytes, ...) - Data: 2F 48 02 F0 D4 F9 38 BD 31 49 32 4A 12 68 88 54 ... -- CPU_WriteMem(384 bytes @ 0x20000400)  returns 0x180 (0006ms, 0625ms total)
T0F44 043:100 JLINK_WriteReg(R0, 0x08000800)  returns 0x00 (0000ms, 0625ms total)
T0F44 043:100 JLINK_WriteReg(R1, 0x00000400)  returns 0x00 (0000ms, 0625ms total)
T0F44 043:100 JLINK_WriteReg(R2, 0x20000180)  returns 0x00 (0000ms, 0625ms total)
T0F44 043:100 JLINK_WriteReg(R3, 0x00000000)  returns 0x00 (0000ms, 0625ms total)
T0F44 043:100 JLINK_WriteReg(R4, 0x00000000)  returns 0x00 (0000ms, 0625ms total)
T0F44 043:100 JLINK_WriteReg(R5, 0x00000000)  returns 0x00 (0000ms, 0625ms total)
T0F44 043:100 JLINK_WriteReg(R6, 0x00000000)  returns 0x00 (0001ms, 0626ms total)
T0F44 043:101 JLINK_WriteReg(R7, 0x00000000)  returns 0x00 (0000ms, 0626ms total)
T0F44 043:101 JLINK_WriteReg(R8, 0x00000000)  returns 0x00 (0000ms, 0626ms total)
T0F44 043:101 JLINK_WriteReg(R9, 0x2000017C)  returns 0x00 (0000ms, 0626ms total)
T0F44 043:101 JLINK_WriteReg(R10, 0x00000000)  returns 0x00 (0000ms, 0626ms total)
T0F44 043:101 JLINK_WriteReg(R11, 0x00000000)  returns 0x00 (0000ms, 0626ms total)
T0F44 043:101 JLINK_WriteReg(R12, 0x00000000)  returns 0x00 (0000ms, 0626ms total)
T0F44 043:101 JLINK_WriteReg(R13 (SP), 0x20001000)  returns 0x00 (0000ms, 0626ms total)
T0F44 043:101 JLINK_WriteReg(R14, 0x20000001)  returns 0x00 (0000ms, 0626ms total)
T0F44 043:101 JLINK_WriteReg(R15 (PC), 0x20000108)  returns 0x00 (0000ms, 0626ms total)
T0F44 043:101 JLINK_WriteReg(XPSR, 0x01000000)  returns 0x00 (0000ms, 0626ms total)
T0F44 043:101 JLINK_WriteReg(MSP, 0x20001000)  returns 0x00 (0000ms, 0626ms total)
T0F44 043:101 JLINK_WriteReg(PSP, 0x20001000)  returns 0x00 (0000ms, 0626ms total)
T0F44 043:101 JLINK_WriteReg(CFBP, 0x00000000)  returns 0x00 (0000ms, 0626ms total)
T0F44 043:101 JLINK_SetBPEx(Addr = 0x20000000, Type = 0xFFFFFFF2)  returns 0x0000000A (0000ms, 0626ms total)
T0F44 043:101 JLINK_Go() -- CPU_ReadMem(4 bytes @ 0xE0001000) (0005ms, 0631ms total)
T0F44 043:106 JLINK_IsHalted()  returns FALSE (0000ms, 0631ms total)
T0F44 043:111 JLINK_IsHalted() -- CPU_ReadMem(2 bytes @ 0x20000000)  returns TRUE (0006ms, 0637ms total)
T0F44 043:117 JLINK_ReadReg(R15 (PC))  returns 0x20000000 (0000ms, 0631ms total)
T0F44 043:117 JLINK_ClrBPEx(BPHandle = 0x0000000A)  returns 0x00 (0000ms, 0631ms total)
T0F44 043:117 JLINK_ReadReg(R0)  returns 0x00000000 (0000ms, 0631ms total)
T0F44 043:120 JLINK_WriteMem(0x20000180, 0x0280 Bytes, ...) - Data: 30 B5 05 46 0C 46 28 46 FF F7 BE FF 20 46 FF F7 ... -- CPU_WriteMem(640 bytes @ 0x20000180)  returns 0x280 (0009ms, 0640ms total)
T0F44 043:129 JLINK_WriteMem(0x20000400, 0x0180 Bytes, ...) - Data: 0C E0 00 26 07 E0 C4 F3 07 20 FF F7 7D FE E0 B2 ... -- CPU_WriteMem(384 bytes @ 0x20000400)  returns 0x180 (0006ms, 0646ms total)
T0F44 043:135 JLINK_WriteReg(R0, 0x08000C00)  returns 0x00 (0000ms, 0646ms total)
T0F44 043:135 JLINK_WriteReg(R1, 0x00000400)  returns 0x00 (0000ms, 0646ms total)
T0F44 043:135 JLINK_WriteReg(R2, 0x20000180)  returns 0x00 (0001ms, 0647ms total)
T0F44 043:136 JLINK_WriteReg(R3, 0x00000000)  returns 0x00 (0000ms, 0647ms total)
T0F44 043:136 JLINK_WriteReg(R4, 0x00000000)  returns 0x00 (0000ms, 0647ms total)
T0F44 043:136 JLINK_WriteReg(R5, 0x00000000)  returns 0x00 (0000ms, 0647ms total)
T0F44 043:136 JLINK_WriteReg(R6, 0x00000000)  returns 0x00 (0000ms, 0647ms total)
T0F44 043:136 JLINK_WriteReg(R7, 0x00000000)  returns 0x00 (0000ms, 0647ms total)
T0F44 043:136 JLINK_WriteReg(R8, 0x00000000)  returns 0x00 (0000ms, 0647ms total)
T0F44 043:136 JLINK_WriteReg(R9, 0x2000017C)  returns 0x00 (0000ms, 0647ms total)
T0F44 043:136 JLINK_WriteReg(R10, 0x00000000)  returns 0x00 (0000ms, 0647ms total)
T0F44 043:136 JLINK_WriteReg(R11, 0x00000000)  returns 0x00 (0000ms, 0647ms total)
T0F44 043:136 JLINK_WriteReg(R12, 0x00000000)  returns 0x00 (0000ms, 0647ms total)
T0F44 043:136 JLINK_WriteReg(R13 (SP), 0x20001000)  returns 0x00 (0000ms, 0647ms total)
T0F44 043:136 JLINK_WriteReg(R14, 0x20000001)  returns 0x00 (0000ms, 0647ms total)
T0F44 043:136 JLINK_WriteReg(R15 (PC), 0x20000108)  returns 0x00 (0000ms, 0647ms total)
T0F44 043:136 JLINK_WriteReg(XPSR, 0x01000000)  returns 0x00 (0000ms, 0647ms total)
T0F44 043:136 JLINK_WriteReg(MSP, 0x20001000)  returns 0x00 (0000ms, 0647ms total)
T0F44 043:136 JLINK_WriteReg(PSP, 0x20001000)  returns 0x00 (0000ms, 0647ms total)
T0F44 043:136 JLINK_WriteReg(CFBP, 0x00000000)  returns 0x00 (0000ms, 0647ms total)
T0F44 043:137 JLINK_SetBPEx(Addr = 0x20000000, Type = 0xFFFFFFF2)  returns 0x0000000B (0000ms, 0648ms total)
T0F44 043:137 JLINK_Go() -- CPU_ReadMem(4 bytes @ 0xE0001000) (0004ms, 0652ms total)
T0F44 043:141 JLINK_IsHalted()  returns FALSE (0001ms, 0653ms total)
T0F44 043:144 JLINK_IsHalted() -- CPU_ReadMem(2 bytes @ 0x20000000)  returns TRUE (0006ms, 0658ms total)
T0F44 043:150 JLINK_ReadReg(R15 (PC))  returns 0x20000000 (0000ms, 0652ms total)
T0F44 043:150 JLINK_ClrBPEx(BPHandle = 0x0000000B)  returns 0x00 (0001ms, 0653ms total)
T0F44 043:151 JLINK_ReadReg(R0)  returns 0x00000000 (0000ms, 0653ms total)
T0F44 043:152 JLINK_WriteMem(0x20000180, 0x0280 Bytes, ...) - Data: 2D E9 F8 41 05 46 0F 46 14 46 1E 46 DD F8 1C 80 ... -- CPU_WriteMem(640 bytes @ 0x20000180)  returns 0x280 (0010ms, 0663ms total)
T0F44 043:162 JLINK_WriteMem(0x20000400, 0x0180 Bytes, ...) - Data: 08 02 00 F0 B3 FF 00 20 00 90 4F F4 80 30 01 90 ... -- CPU_WriteMem(384 bytes @ 0x20000400)  returns 0x180 (0006ms, 0669ms total)
T0F44 043:168 JLINK_WriteReg(R0, 0x08001000)  returns 0x00 (0000ms, 0669ms total)
T0F44 043:168 JLINK_WriteReg(R1, 0x00000400)  returns 0x00 (0000ms, 0669ms total)
T0F44 043:168 JLINK_WriteReg(R2, 0x20000180)  returns 0x00 (0000ms, 0669ms total)
T0F44 043:168 JLINK_WriteReg(R3, 0x00000000)  returns 0x00 (0000ms, 0669ms total)
T0F44 043:168 JLINK_WriteReg(R4, 0x00000000)  returns 0x00 (0000ms, 0669ms total)
T0F44 043:168 JLINK_WriteReg(R5, 0x00000000)  returns 0x00 (0000ms, 0669ms total)
T0F44 043:168 JLINK_WriteReg(R6, 0x00000000)  returns 0x00 (0000ms, 0669ms total)
T0F44 043:168 JLINK_WriteReg(R7, 0x00000000)  returns 0x00 (0001ms, 0670ms total)
T0F44 043:169 JLINK_WriteReg(R8, 0x00000000)  returns 0x00 (0000ms, 0670ms total)
T0F44 043:169 JLINK_WriteReg(R9, 0x2000017C)  returns 0x00 (0000ms, 0670ms total)
T0F44 043:169 JLINK_WriteReg(R10, 0x00000000)  returns 0x00 (0000ms, 0670ms total)
T0F44 043:169 JLINK_WriteReg(R11, 0x00000000)  returns 0x00 (0000ms, 0670ms total)
T0F44 043:169 JLINK_WriteReg(R12, 0x00000000)  returns 0x00 (0000ms, 0670ms total)
T0F44 043:169 JLINK_WriteReg(R13 (SP), 0x20001000)  returns 0x00 (0000ms, 0670ms total)
T0F44 043:169 JLINK_WriteReg(R14, 0x20000001)  returns 0x00 (0000ms, 0670ms total)
T0F44 043:169 JLINK_WriteReg(R15 (PC), 0x20000108)  returns 0x00 (0000ms, 0670ms total)
T0F44 043:169 JLINK_WriteReg(XPSR, 0x01000000)  returns 0x00 (0000ms, 0670ms total)
T0F44 043:169 JLINK_WriteReg(MSP, 0x20001000)  returns 0x00 (0000ms, 0670ms total)
T0F44 043:169 JLINK_WriteReg(PSP, 0x20001000)  returns 0x00 (0000ms, 0670ms total)
T0F44 043:169 JLINK_WriteReg(CFBP, 0x00000000)  returns 0x00 (0000ms, 0670ms total)
T0F44 043:169 JLINK_SetBPEx(Addr = 0x20000000, Type = 0xFFFFFFF2)  returns 0x0000000C (0000ms, 0670ms total)
T0F44 043:169 JLINK_Go() -- CPU_ReadMem(4 bytes @ 0xE0001000) (0005ms, 0675ms total)
T0F44 043:174 JLINK_IsHalted()  returns FALSE (0001ms, 0676ms total)
T0F44 043:183 JLINK_IsHalted() -- CPU_ReadMem(2 bytes @ 0x20000000)  returns TRUE (0005ms, 0680ms total)
T0F44 043:188 JLINK_ReadReg(R15 (PC))  returns 0x20000000 (0000ms, 0675ms total)
T0F44 043:189 JLINK_ClrBPEx(BPHandle = 0x0000000C)  returns 0x00 (0000ms, 0676ms total)
T0F44 043:189 JLINK_ReadReg(R0)  returns 0x00000000 (0000ms, 0676ms total)
T0F44 043:190 JLINK_WriteMem(0x20000180, 0x0280 Bytes, ...) - Data: 60 49 08 60 5E 48 08 30 00 68 5D 49 08 31 08 60 ... -- CPU_WriteMem(640 bytes @ 0x20000180)  returns 0x280 (0009ms, 0685ms total)
T0F44 043:199 JLINK_WriteMem(0x20000400, 0x0180 Bytes, ...) - Data: 00 E4 00 E0 80 E1 00 E0 80 FF FF 1F 10 B5 01 21 ... -- CPU_WriteMem(384 bytes @ 0x20000400)  returns 0x180 (0006ms, 0691ms total)
T0F44 043:205 JLINK_WriteReg(R0, 0x08001400)  returns 0x00 (0000ms, 0691ms total)
T0F44 043:205 JLINK_WriteReg(R1, 0x00000400)  returns 0x00 (0000ms, 0691ms total)
T0F44 043:205 JLINK_WriteReg(R2, 0x20000180)  returns 0x00 (0000ms, 0691ms total)
T0F44 043:205 JLINK_WriteReg(R3, 0x00000000)  returns 0x00 (0000ms, 0691ms total)
T0F44 043:205 JLINK_WriteReg(R4, 0x00000000)  returns 0x00 (0000ms, 0691ms total)
